
T4984 000:318 SEGGER J-Link V4.92 Log File (0001ms, 0272ms total)
T4984 000:318 DLL Compiled: Sep 30 2014 09:33:42 (0001ms, 0272ms total)
T4984 000:318 Logging started @ 2024-07-26 19:33 (0001ms, 0272ms total)
T4984 000:319 JLINK_SetWarnOutHandler(...) (0000ms, 0272ms total)
T4984 000:319 JLINK_OpenEx(...)
Firmware: J-Link ARM-OB STM32 compiled Aug 22 2012 19:52:04
Hardware: V7.00
S/N: 20090928
Feature(s): RDI,FlashDL,FlashBP,JFlash,GDB  returns O.K. (0280ms, 0552ms total)
T4984 000:599 JLINK_SetErrorOutHandler(...) (0000ms, 0552ms total)
T4984 000:599 JLINK_ExecCommand("ProjectFile = "C:\Users\wang0\Desktop\SmartProject\USER\JLinkSettings.ini"", ...)  returns 0x00 (0001ms, 0553ms total)
T4984 000:616 JLINK_ExecCommand("Device = STM32F407VE", ...)Device "STM32F407VE" selected (512 KB flash, 128 KB RAM).  returns 0x00 (0004ms, 0557ms total)
T4984 000:620 JLINK_ExecCommand("DisableConnectionTimeout", ...)  returns 0x01 (0000ms, 0557ms total)
T4984 000:620 JLINK_GetHardwareVersion()  returns 0x11170 (0000ms, 0557ms total)
T4984 000:620 JLINK_GetDLLVersion()  returns 49200 (0000ms, 0557ms total)
T4984 000:620 JLINK_GetFirmwareString(...) (0000ms, 0557ms total)
T4984 000:642 JLINK_GetDLLVersion()  returns 49200 (0000ms, 0557ms total)
T4984 000:642 JLINK_GetCompileDateTime() (0000ms, 0557ms total)
T4984 000:644 JLINK_GetFirmwareString(...) (0001ms, 0558ms total)
T4984 000:648 JLINK_GetHardwareVersion()  returns 0x11170 (0000ms, 0558ms total)
T4984 000:656 JLINK_TIF_Select(JLINKARM_TIF_SWD)  returns 0x00 (0001ms, 0559ms total)
T4984 000:657 JLINK_SetSpeed(20000) (0000ms, 0559ms total)
T4984 000:657 JLINK_GetId() >0x108 TIF>Found SWD-DP with ID 0x2BA01477 >0x0D TIF> >0x28 TIF> >0x0D TIF> >0x28 TIF> >0x0D TIF> >0x21 TIF> >0x0D TIF> >0x28 TIF> >0x0D TIF> >0x28 TIF> >0x0D TIF> >0x28 TIF> >0x0D TIF> >0x21 TIF> >0x0D TIF> >0x21 TIF> >0x0D TIF> >0x28 TIF> >0x0D TIF> >0x21 TIF> >0x0D TIF> >0x21 TIF> >0x0D TIF> >0x28 TIF> >0x0D TIF> >0x21 TIF> >0x0D TIF> >0x21 TIF> >0x108 TIF>Found SWD-DP with ID 0x2BA01477 >0x0D TIF> >0x21 TIF> >0x0D TIF> >0x28 TIF> >0x0D TIF> >0x28 TIF> >0x0D TIF> >0x21 TIF>
 >0x0D TIF> >0x28 TIF> >0x0D TIF> >0x21 TIF> >0x0D TIF> >0x21 TIF> >0x0D TIF> >0x21 TIF> >0x0D TIF> >0x21 TIF> >0x0D TIF> >0x28 TIF> >0x0D TIF> >0x28 TIF> >0x0D TIF> >0x21 TIF> >0x0D TIF> >0x28 TIF> >0x0D TIF> >0x28 TIF> >0x0D TIF> >0x28 TIF> >0x0D TIF> >0x21 TIF> >0x0D TIF> >0x21 TIF> >0x0D TIF> >0x28 TIF> >0x0D TIF> >0x21 TIF> >0x0D TIF> >0x21 TIF>Found Cortex-M4 r0p1, Little endian. -- CPU_WriteMem(4 bytes @ 0xE0002000) -- CPU_ReadMem(4 bytes @ 0xE000EDF0) -- CPU_ReadMem(4 bytes @ 0xE0002000)
FPUnit: 6 code (BP) slots and 2 literal slots -- CPU_ReadMem(4 bytes @ 0xE000EDFC) -- CPU_ReadMem(4 bytes @ 0xE0001000) -- CPU_WriteMem(4 bytes @ 0xE0001000) -- CPU_ReadMem(4 bytes @ 0xE000ED88) -- CPU_WriteMem(4 bytes @ 0xE000ED88) -- CPU_ReadMem(4 bytes @ 0xE000ED88) -- CPU_WriteMem(4 bytes @ 0xE000ED88) -- CPU_ReadMem(4 bytes @ 0xE00FF010)TPIU fitted. -- CPU_ReadMem(4 bytes @ 0xE00FF014)ETM fitted. -- CPU_ReadMem(4 bytes @ 0xE00FF018) >0x0D TIF> >0x21 TIF>  returns 0x2BA01477 (0043ms, 0602ms total)
T4984 000:700 JLINK_GetDLLVersion()  returns 49200 (0000ms, 0602ms total)
T4984 000:700 JLINK_CORE_GetFound()  returns 0xE0000FF (0000ms, 0602ms total)
T4984 000:702 JLINK_ReadMem (0xE00FF000, 0x0020 Bytes, ...) -- CPU is running -- CPU_ReadMem(32 bytes @ 0xE00FF000) - Data: 03 F0 F0 FF 03 20 F0 FF 03 30 F0 FF 03 10 F0 FF ...  returns 0x00 (0001ms, 0603ms total)
T4984 000:703 JLINK_ReadMem (0xE000EFF0, 0x0010 Bytes, ...) -- CPU is running -- CPU_ReadMem(16 bytes @ 0xE000EFF0) - Data: 0D 00 00 00 E0 00 00 00 05 00 00 00 B1 00 00 00  returns 0x00 (0000ms, 0603ms total)
T4984 000:703 JLINK_ReadMem (0xE000EFD0, 0x0020 Bytes, ...) -- CPU is running -- CPU_ReadMem(32 bytes @ 0xE000EFD0) - Data: 04 00 00 00 00 00 00 00 00 00 00 00 00 00 00 00 ...  returns 0x00 (0001ms, 0604ms total)
T4984 000:704 JLINK_ReadMem (0xE0001FF0, 0x0010 Bytes, ...) -- CPU is running -- CPU_ReadMem(16 bytes @ 0xE0001FF0) - Data: 0D 00 00 00 E0 00 00 00 05 00 00 00 B1 00 00 00  returns 0x00 (0001ms, 0605ms total)
T4984 000:705 JLINK_ReadMem (0xE0001FD0, 0x0020 Bytes, ...) -- CPU is running -- CPU_ReadMem(32 bytes @ 0xE0001FD0) - Data: 04 00 00 00 00 00 00 00 00 00 00 00 00 00 00 00 ...  returns 0x00 (0000ms, 0605ms total)
T4984 000:705 JLINK_ReadMem (0xE0002FF0, 0x0010 Bytes, ...) -- CPU is running -- CPU_ReadMem(16 bytes @ 0xE0002FF0) - Data: 0D 00 00 00 E0 00 00 00 05 00 00 00 B1 00 00 00  returns 0x00 (0001ms, 0606ms total)
T4984 000:706 JLINK_ReadMem (0xE0002FD0, 0x0020 Bytes, ...) -- CPU is running -- CPU_ReadMem(32 bytes @ 0xE0002FD0) - Data: 04 00 00 00 00 00 00 00 00 00 00 00 00 00 00 00 ...  returns 0x00 (0001ms, 0607ms total)
T4984 000:707 JLINK_ReadMem (0xE0000FF0, 0x0010 Bytes, ...) -- CPU is running -- CPU_ReadMem(16 bytes @ 0xE0000FF0) - Data: 0D 00 00 00 E0 00 00 00 05 00 00 00 B1 00 00 00  returns 0x00 (0000ms, 0607ms total)
T4984 000:707 JLINK_ReadMem (0xE0000FD0, 0x0020 Bytes, ...) -- CPU is running -- CPU_ReadMem(32 bytes @ 0xE0000FD0) - Data: 04 00 00 00 00 00 00 00 00 00 00 00 00 00 00 00 ...  returns 0x00 (0001ms, 0608ms total)
T4984 000:708 JLINK_ReadMem (0xE0040FF0, 0x0010 Bytes, ...) -- CPU is running -- CPU_ReadMem(16 bytes @ 0xE0040FF0) - Data: 0D 00 00 00 90 00 00 00 05 00 00 00 B1 00 00 00  returns 0x00 (0001ms, 0609ms total)
T4984 000:709 JLINK_ReadMem (0xE0040FD0, 0x0020 Bytes, ...) -- CPU is running -- CPU_ReadMem(32 bytes @ 0xE0040FD0) - Data: 04 00 00 00 00 00 00 00 00 00 00 00 00 00 00 00 ...  returns 0x00 (0001ms, 0610ms total)
T4984 000:710 JLINK_ReadMem (0xE0041FF0, 0x0010 Bytes, ...) -- CPU is running -- CPU_ReadMem(16 bytes @ 0xE0041FF0) - Data: 0D 00 00 00 90 00 00 00 05 00 00 00 B1 00 00 00  returns 0x00 (0000ms, 0610ms total)
T4984 000:710 JLINK_ReadMem (0xE0041FD0, 0x0020 Bytes, ...) -- CPU is running -- CPU_ReadMem(32 bytes @ 0xE0041FD0) - Data: 04 00 00 00 00 00 00 00 00 00 00 00 00 00 00 00 ...  returns 0x00 (0001ms, 0611ms total)
T4984 000:711 JLINK_ReadMemU32(0xE000EF40, 0x0001 Items, ...) -- CPU is running -- CPU_ReadMem(4 bytes @ 0xE000EF40) - Data: 21 00 11 10  returns 0x01 (0001ms, 0612ms total)
T4984 000:712 JLINK_ReadMemU32(0xE000EF44, 0x0001 Items, ...) -- CPU is running -- CPU_ReadMem(4 bytes @ 0xE000EF44) - Data: 11 00 00 11  returns 0x01 (0000ms, 0612ms total)
T4984 000:712 JLINK_ReadMemU32(0xE000ED00, 0x0001 Items, ...) -- CPU is running -- CPU_ReadMem(4 bytes @ 0xE000ED00) - Data: 41 C2 0F 41  returns 0x01 (0000ms, 0612ms total)
T4984 000:712 JLINK_SetResetType(JLINKARM_RESET_TYPE_NORMAL)  returns JLINKARM_RESET_TYPE_NORMAL (0000ms, 0612ms total)
T4984 000:712 JLINK_Reset() -- CPU is running -- CPU_WriteMem(4 bytes @ 0xE000EDF0) -- CPU is running -- CPU_WriteMem(4 bytes @ 0xE000EDFC) >0x35 TIF> -- CPU is running -- CPU_WriteMem(4 bytes @ 0xE000ED0C) -- CPU is running -- CPU_ReadMem(4 bytes @ 0xE000EDF0) -- CPU is running -- CPU_ReadMem(4 bytes @ 0xE000EDF0) -- CPU is running -- CPU_WriteMem(4 bytes @ 0xE000EDF0) -- CPU is running -- CPU_WriteMem(4 bytes @ 0xE000EDFC) -- CPU is running -- CPU_ReadMem(4 bytes @ 0xE000EDF0)
 -- CPU_WriteMem(4 bytes @ 0xE0002000) -- CPU_ReadMem(4 bytes @ 0xE000EDFC) -- CPU_ReadMem(4 bytes @ 0xE0001000) (0033ms, 0645ms total)
T4984 000:745 JLINK_Halt()  returns 0x00 (0000ms, 0645ms total)
T4984 000:745 JLINK_IsHalted()  returns TRUE (0000ms, 0645ms total)
T4984 000:745 JLINK_ReadMemU32(0xE000EDF0, 0x0001 Items, ...) -- CPU_ReadMem(4 bytes @ 0xE000EDF0) - Data: 03 00 03 00  returns 0x01 (0000ms, 0645ms total)
T4984 000:745 JLINK_WriteU32(0xE000EDF0, 0xA05F0003) -- CPU_WriteMem(4 bytes @ 0xE000EDF0)  returns 0x00 (0001ms, 0646ms total)
T4984 000:746 JLINK_WriteU32(0xE000EDFC, 0x01000000) -- CPU_WriteMem(4 bytes @ 0xE000EDFC)  returns 0x00 (0000ms, 0646ms total)
T4984 000:764 JLINK_GetHWStatus(...)  returns 0x00 (0000ms, 0646ms total)
T4984 000:769 JLINK_GetNumBPUnits(Type = 0xFFFFFF00)  returns 0x06 (0000ms, 0646ms total)
T4984 000:769 JLINK_GetNumBPUnits(Type = 0xF0)  returns 0x2000 (0001ms, 0647ms total)
T4984 000:770 JLINK_GetNumWPUnits()  returns 0x04 (0000ms, 0647ms total)
T4984 000:777 JLINK_GetSpeed()  returns 0xFA0 (0000ms, 0647ms total)
T4984 000:780 JLINK_ReadMemU32(0xE000E004, 0x0001 Items, ...) -- CPU_ReadMem(4 bytes @ 0xE000E004) - Data: 02 00 00 00  returns 0x01 (0001ms, 0648ms total)
T4984 000:781 JLINK_ReadMemU32(0xE000E004, 0x0001 Items, ...) -- CPU_ReadMem(4 bytes @ 0xE000E004) - Data: 02 00 00 00  returns 0x01 (0001ms, 0649ms total)
T4984 000:782 JLINK_WriteMem(0xE0001000, 0x001C Bytes, ...) - Data: 01 00 00 00 00 00 00 00 00 00 00 00 00 00 00 00 ... -- CPU_WriteMem(28 bytes @ 0xE0001000)  returns 0x1C (0000ms, 0649ms total)
T4984 000:782 JLINK_ReadMem (0xE0001000, 0x001C Bytes, ...) -- CPU_ReadMem(28 bytes @ 0xE0001000) - Data: 01 00 00 40 00 00 00 00 00 00 00 00 00 00 00 00 ...  returns 0x00 (0002ms, 0651ms total)
T4984 000:784 JLINK_Halt()  returns 0x00 (0000ms, 0651ms total)
T4984 000:784 JLINK_IsHalted()  returns TRUE (0000ms, 0651ms total)
T4984 000:791 JLINK_WriteMem(0x20000000, 0x0180 Bytes, ...) - Data: 00 BE 0A E0 0D 78 2D 06 68 40 08 24 40 00 00 D3 ... -- CPU_WriteMem(384 bytes @ 0x20000000)  returns 0x180 (0004ms, 0655ms total)
T4984 000:795 JLINK_WriteReg(R0, 0x08000000)  returns 0x00 (0000ms, 0655ms total)
T4984 000:795 JLINK_WriteReg(R1, 0x00B71B00)  returns 0x00 (0000ms, 0655ms total)
T4984 000:795 JLINK_WriteReg(R2, 0x00000001)  returns 0x00 (0000ms, 0655ms total)
T4984 000:795 JLINK_WriteReg(R3, 0x00000000)  returns 0x00 (0000ms, 0655ms total)
T4984 000:795 JLINK_WriteReg(R4, 0x00000000)  returns 0x00 (0000ms, 0655ms total)
T4984 000:795 JLINK_WriteReg(R5, 0x00000000)  returns 0x00 (0000ms, 0655ms total)
T4984 000:795 JLINK_WriteReg(R6, 0x00000000)  returns 0x00 (0000ms, 0655ms total)
T4984 000:795 JLINK_WriteReg(R7, 0x00000000)  returns 0x00 (0000ms, 0655ms total)
T4984 000:795 JLINK_WriteReg(R8, 0x00000000)  returns 0x00 (0000ms, 0655ms total)
T4984 000:795 JLINK_WriteReg(R9, 0x2000017C)  returns 0x00 (0000ms, 0655ms total)
T4984 000:795 JLINK_WriteReg(R10, 0x00000000)  returns 0x00 (0000ms, 0655ms total)
T4984 000:795 JLINK_WriteReg(R11, 0x00000000)  returns 0x00 (0000ms, 0655ms total)
T4984 000:795 JLINK_WriteReg(R12, 0x00000000)  returns 0x00 (0000ms, 0655ms total)
T4984 000:795 JLINK_WriteReg(R13 (SP), 0x20001000)  returns 0x00 (0000ms, 0655ms total)
T4984 000:795 JLINK_WriteReg(R14, 0x20000001)  returns 0x00 (0000ms, 0655ms total)
T4984 000:795 JLINK_WriteReg(R15 (PC), 0x20000054)  returns 0x00 (0000ms, 0655ms total)
T4984 000:795 JLINK_WriteReg(XPSR, 0x01000000)  returns 0x00 (0000ms, 0655ms total)
T4984 000:795 JLINK_WriteReg(MSP, 0x20001000)  returns 0x00 (0000ms, 0655ms total)
T4984 000:795 JLINK_WriteReg(PSP, 0x20001000)  returns 0x00 (0000ms, 0655ms total)
T4984 000:795 JLINK_WriteReg(CFBP, 0x00000000)  returns 0x00 (0000ms, 0655ms total)
T4984 000:795 JLINK_SetBPEx(Addr = 0x20000000, Type = 0xFFFFFFF2) -- CPU_ReadMem(2 bytes @ 0x20000000)  returns 0x00000001 (0001ms, 0656ms total)
T4984 000:796 JLINK_Go() -- CPU_WriteMem(2 bytes @ 0x20000000) -- CPU_WriteMem(4 bytes @ 0xE0002008) -- CPU_WriteMem(4 bytes @ 0xE000200C) -- CPU_WriteMem(4 bytes @ 0xE0002010) -- CPU_WriteMem(4 bytes @ 0xE0002014) -- CPU_WriteMem(4 bytes @ 0xE0002018) -- CPU_WriteMem(4 bytes @ 0xE000201C) -- CPU_WriteMem(4 bytes @ 0xE0001004) (0006ms, 0662ms total)
T4984 000:802 JLINK_IsHalted() -- CPU_ReadMem(2 bytes @ 0x20000000)  returns TRUE (0004ms, 0666ms total)
T4984 000:806 JLINK_ReadReg(R15 (PC))  returns 0x20000000 (0000ms, 0662ms total)
T4984 000:806 JLINK_ClrBPEx(BPHandle = 0x00000001)  returns 0x00 (0000ms, 0662ms total)
T4984 000:806 JLINK_ReadReg(R0)  returns 0x00000000 (0000ms, 0662ms total)
T4984 000:814 JLINK_WriteReg(R0, 0x08000000)  returns 0x00 (0000ms, 0662ms total)
T4984 000:814 JLINK_WriteReg(R1, 0x00004000)  returns 0x00 (0000ms, 0662ms total)
T4984 000:814 JLINK_WriteReg(R2, 0x000000FF)  returns 0x00 (0000ms, 0662ms total)
T4984 000:814 JLINK_WriteReg(R3, 0x00000000)  returns 0x00 (0000ms, 0662ms total)
T4984 000:814 JLINK_WriteReg(R4, 0x00000000)  returns 0x00 (0000ms, 0662ms total)
T4984 000:815 JLINK_WriteReg(R5, 0x00000000)  returns 0x00 (0000ms, 0662ms total)
T4984 000:815 JLINK_WriteReg(R6, 0x00000000)  returns 0x00 (0000ms, 0662ms total)
T4984 000:815 JLINK_WriteReg(R7, 0x00000000)  returns 0x00 (0000ms, 0662ms total)
T4984 000:815 JLINK_WriteReg(R8, 0x00000000)  returns 0x00 (0000ms, 0662ms total)
T4984 000:815 JLINK_WriteReg(R9, 0x2000017C)  returns 0x00 (0000ms, 0662ms total)
T4984 000:815 JLINK_WriteReg(R10, 0x00000000)  returns 0x00 (0000ms, 0662ms total)
T4984 000:815 JLINK_WriteReg(R11, 0x00000000)  returns 0x00 (0000ms, 0662ms total)
T4984 000:815 JLINK_WriteReg(R12, 0x00000000)  returns 0x00 (0000ms, 0662ms total)
T4984 000:815 JLINK_WriteReg(R13 (SP), 0x20001000)  returns 0x00 (0000ms, 0662ms total)
T4984 000:815 JLINK_WriteReg(R14, 0x20000001)  returns 0x00 (0000ms, 0662ms total)
T4984 000:815 JLINK_WriteReg(R15 (PC), 0x20000020)  returns 0x00 (0000ms, 0662ms total)
T4984 000:815 JLINK_WriteReg(XPSR, 0x01000000)  returns 0x00 (0000ms, 0662ms total)
T4984 000:815 JLINK_WriteReg(MSP, 0x20001000)  returns 0x00 (0000ms, 0662ms total)
T4984 000:815 JLINK_WriteReg(PSP, 0x20001000)  returns 0x00 (0000ms, 0662ms total)
T4984 000:815 JLINK_WriteReg(CFBP, 0x00000000)  returns 0x00 (0000ms, 0662ms total)
T4984 000:815 JLINK_SetBPEx(Addr = 0x20000000, Type = 0xFFFFFFF2)  returns 0x00000002 (0000ms, 0662ms total)
T4984 000:815 JLINK_Go() (0001ms, 0663ms total)
T4984 000:816 JLINK_IsHalted() -- CPU_ReadMem(2 bytes @ 0x20000000)  returns TRUE (0004ms, 0667ms total)
T4984 000:820 JLINK_ReadReg(R15 (PC))  returns 0x20000000 (0000ms, 0663ms total)
T4984 000:820 JLINK_ClrBPEx(BPHandle = 0x00000002)  returns 0x00 (0000ms, 0663ms total)
T4984 000:820 JLINK_ReadReg(R0)  returns 0x00000001 (0000ms, 0663ms total)
T4984 000:820 JLINK_WriteReg(R0, 0x08000000)  returns 0x00 (0000ms, 0663ms total)
T4984 000:820 JLINK_WriteReg(R1, 0x00004000)  returns 0x00 (0000ms, 0663ms total)
T4984 000:820 JLINK_WriteReg(R2, 0x000000FF)  returns 0x00 (0000ms, 0663ms total)
T4984 000:820 JLINK_WriteReg(R3, 0x00000000)  returns 0x00 (0000ms, 0663ms total)
T4984 000:820 JLINK_WriteReg(R4, 0x00000000)  returns 0x00 (0000ms, 0663ms total)
T4984 000:820 JLINK_WriteReg(R5, 0x00000000)  returns 0x00 (0000ms, 0663ms total)
T4984 000:820 JLINK_WriteReg(R6, 0x00000000)  returns 0x00 (0000ms, 0663ms total)
T4984 000:820 JLINK_WriteReg(R7, 0x00000000)  returns 0x00 (0000ms, 0663ms total)
T4984 000:820 JLINK_WriteReg(R8, 0x00000000)  returns 0x00 (0000ms, 0663ms total)
T4984 000:820 JLINK_WriteReg(R9, 0x2000017C)  returns 0x00 (0000ms, 0663ms total)
T4984 000:820 JLINK_WriteReg(R10, 0x00000000)  returns 0x00 (0000ms, 0663ms total)
T4984 000:820 JLINK_WriteReg(R11, 0x00000000)  returns 0x00 (0000ms, 0663ms total)
T4984 000:820 JLINK_WriteReg(R12, 0x00000000)  returns 0x00 (0000ms, 0663ms total)
T4984 000:820 JLINK_WriteReg(R13 (SP), 0x20001000)  returns 0x00 (0000ms, 0663ms total)
T4984 000:820 JLINK_WriteReg(R14, 0x20000001)  returns 0x00 (0000ms, 0663ms total)
T4984 000:820 JLINK_WriteReg(R15 (PC), 0x200000BC)  returns 0x00 (0000ms, 0663ms total)
T4984 000:820 JLINK_WriteReg(XPSR, 0x01000000)  returns 0x00 (0000ms, 0663ms total)
T4984 000:820 JLINK_WriteReg(MSP, 0x20001000)  returns 0x00 (0000ms, 0663ms total)
T4984 000:820 JLINK_WriteReg(PSP, 0x20001000)  returns 0x00 (0000ms, 0663ms total)
T4984 000:820 JLINK_WriteReg(CFBP, 0x00000000)  returns 0x00 (0000ms, 0663ms total)
T4984 000:820 JLINK_SetBPEx(Addr = 0x20000000, Type = 0xFFFFFFF2)  returns 0x00000003 (0000ms, 0663ms total)
T4984 000:820 JLINK_Go() (0003ms, 0666ms total)
T4984 000:823 JLINK_IsHalted()  returns FALSE (0000ms, 0666ms total)
T4984 000:895 JLINK_IsHalted()  returns FALSE (0000ms, 0666ms total)
T4984 000:911 JLINK_IsHalted()  returns FALSE (0000ms, 0666ms total)
T4984 000:926 JLINK_IsHalted()  returns FALSE (0000ms, 0666ms total)
T4984 000:942 JLINK_IsHalted()  returns FALSE (0000ms, 0666ms total)
T4984 000:958 JLINK_IsHalted()  returns FALSE (0000ms, 0666ms total)
T4984 000:973 JLINK_IsHalted()  returns FALSE (0000ms, 0666ms total)
T4984 000:989 JLINK_IsHalted()  returns FALSE (0000ms, 0666ms total)
T4984 001:005 JLINK_IsHalted()  returns FALSE (0001ms, 0667ms total)
T4984 001:020 JLINK_IsHalted()  returns FALSE (0000ms, 0666ms total)
T4984 001:035 JLINK_IsHalted()  returns FALSE (0000ms, 0666ms total)
T4984 001:051 JLINK_IsHalted()  returns FALSE (0001ms, 0667ms total)
T4984 001:067 JLINK_IsHalted()  returns FALSE (0000ms, 0666ms total)
T4984 001:082 JLINK_IsHalted()  returns FALSE (0000ms, 0666ms total)
T4984 001:098 JLINK_IsHalted()  returns FALSE (0000ms, 0666ms total)
T4984 001:114 JLINK_IsHalted()  returns FALSE (0000ms, 0666ms total)
T4984 001:129 JLINK_IsHalted()  returns FALSE (0000ms, 0666ms total)
T4984 001:145 JLINK_IsHalted()  returns FALSE (0000ms, 0666ms total)
T4984 001:161 JLINK_IsHalted()  returns FALSE (0001ms, 0667ms total)
T4984 001:177 JLINK_IsHalted() -- CPU_ReadMem(2 bytes @ 0x20000000)  returns TRUE (0004ms, 0670ms total)
T4984 001:181 JLINK_ReadReg(R15 (PC))  returns 0x20000000 (0000ms, 0666ms total)
T4984 001:181 JLINK_ClrBPEx(BPHandle = 0x00000003)  returns 0x00 (0000ms, 0666ms total)
T4984 001:181 JLINK_ReadReg(R0)  returns 0x00000000 (0000ms, 0666ms total)
T4984 001:182 JLINK_WriteReg(R0, 0x08004000)  returns 0x00 (0000ms, 0666ms total)
T4984 001:182 JLINK_WriteReg(R1, 0x00004000)  returns 0x00 (0000ms, 0666ms total)
T4984 001:182 JLINK_WriteReg(R2, 0x000000FF)  returns 0x00 (0000ms, 0666ms total)
T4984 001:182 JLINK_WriteReg(R3, 0x00000000)  returns 0x00 (0000ms, 0666ms total)
T4984 001:182 JLINK_WriteReg(R4, 0x00000000)  returns 0x00 (0000ms, 0666ms total)
T4984 001:182 JLINK_WriteReg(R5, 0x00000000)  returns 0x00 (0000ms, 0666ms total)
T4984 001:182 JLINK_WriteReg(R6, 0x00000000)  returns 0x00 (0000ms, 0666ms total)
T4984 001:182 JLINK_WriteReg(R7, 0x00000000)  returns 0x00 (0000ms, 0666ms total)
T4984 001:182 JLINK_WriteReg(R8, 0x00000000)  returns 0x00 (0000ms, 0666ms total)
T4984 001:182 JLINK_WriteReg(R9, 0x2000017C)  returns 0x00 (0000ms, 0666ms total)
T4984 001:182 JLINK_WriteReg(R10, 0x00000000)  returns 0x00 (0000ms, 0666ms total)
T4984 001:182 JLINK_WriteReg(R11, 0x00000000)  returns 0x00 (0000ms, 0666ms total)
T4984 001:182 JLINK_WriteReg(R12, 0x00000000)  returns 0x00 (0000ms, 0666ms total)
T4984 001:182 JLINK_WriteReg(R13 (SP), 0x20001000)  returns 0x00 (0000ms, 0666ms total)
T4984 001:182 JLINK_WriteReg(R14, 0x20000001)  returns 0x00 (0000ms, 0666ms total)
T4984 001:182 JLINK_WriteReg(R15 (PC), 0x20000020)  returns 0x00 (0000ms, 0666ms total)
T4984 001:182 JLINK_WriteReg(XPSR, 0x01000000)  returns 0x00 (0000ms, 0666ms total)
T4984 001:182 JLINK_WriteReg(MSP, 0x20001000)  returns 0x00 (0000ms, 0666ms total)
T4984 001:182 JLINK_WriteReg(PSP, 0x20001000)  returns 0x00 (0000ms, 0666ms total)
T4984 001:182 JLINK_WriteReg(CFBP, 0x00000000)  returns 0x00 (0000ms, 0666ms total)
T4984 001:182 JLINK_SetBPEx(Addr = 0x20000000, Type = 0xFFFFFFF2)  returns 0x00000004 (0000ms, 0666ms total)
T4984 001:182 JLINK_Go() (0002ms, 0668ms total)
T4984 001:184 JLINK_IsHalted() -- CPU_ReadMem(2 bytes @ 0x20000000)  returns TRUE (0004ms, 0672ms total)
T4984 001:188 JLINK_ReadReg(R15 (PC))  returns 0x20000000 (0000ms, 0668ms total)
T4984 001:188 JLINK_ClrBPEx(BPHandle = 0x00000004)  returns 0x00 (0000ms, 0668ms total)
T4984 001:188 JLINK_ReadReg(R0)  returns 0x00000001 (0000ms, 0668ms total)
T4984 001:188 JLINK_WriteReg(R0, 0x08004000)  returns 0x00 (0000ms, 0668ms total)
T4984 001:188 JLINK_WriteReg(R1, 0x00004000)  returns 0x00 (0000ms, 0668ms total)
T4984 001:188 JLINK_WriteReg(R2, 0x000000FF)  returns 0x00 (0000ms, 0668ms total)
T4984 001:188 JLINK_WriteReg(R3, 0x00000000)  returns 0x00 (0000ms, 0668ms total)
T4984 001:188 JLINK_WriteReg(R4, 0x00000000)  returns 0x00 (0000ms, 0668ms total)
T4984 001:188 JLINK_WriteReg(R5, 0x00000000)  returns 0x00 (0000ms, 0668ms total)
T4984 001:188 JLINK_WriteReg(R6, 0x00000000)  returns 0x00 (0000ms, 0668ms total)
T4984 001:188 JLINK_WriteReg(R7, 0x00000000)  returns 0x00 (0000ms, 0668ms total)
T4984 001:188 JLINK_WriteReg(R8, 0x00000000)  returns 0x00 (0000ms, 0668ms total)
T4984 001:188 JLINK_WriteReg(R9, 0x2000017C)  returns 0x00 (0000ms, 0668ms total)
T4984 001:188 JLINK_WriteReg(R10, 0x00000000)  returns 0x00 (0000ms, 0668ms total)
T4984 001:188 JLINK_WriteReg(R11, 0x00000000)  returns 0x00 (0000ms, 0668ms total)
T4984 001:188 JLINK_WriteReg(R12, 0x00000000)  returns 0x00 (0000ms, 0668ms total)
T4984 001:188 JLINK_WriteReg(R13 (SP), 0x20001000)  returns 0x00 (0000ms, 0668ms total)
T4984 001:188 JLINK_WriteReg(R14, 0x20000001)  returns 0x00 (0000ms, 0668ms total)
T4984 001:188 JLINK_WriteReg(R15 (PC), 0x200000BC)  returns 0x00 (0001ms, 0669ms total)
T4984 001:189 JLINK_WriteReg(XPSR, 0x01000000)  returns 0x00 (0000ms, 0669ms total)
T4984 001:189 JLINK_WriteReg(MSP, 0x20001000)  returns 0x00 (0000ms, 0669ms total)
T4984 001:189 JLINK_WriteReg(PSP, 0x20001000)  returns 0x00 (0000ms, 0669ms total)
T4984 001:189 JLINK_WriteReg(CFBP, 0x00000000)  returns 0x00 (0000ms, 0669ms total)
T4984 001:189 JLINK_SetBPEx(Addr = 0x20000000, Type = 0xFFFFFFF2)  returns 0x00000005 (0000ms, 0669ms total)
T4984 001:189 JLINK_Go() (0001ms, 0670ms total)
T4984 001:190 JLINK_IsHalted()  returns FALSE (0000ms, 0670ms total)
T4984 001:207 JLINK_IsHalted()  returns FALSE (0000ms, 0670ms total)
T4984 001:223 JLINK_IsHalted()  returns FALSE (0000ms, 0670ms total)
T4984 001:239 JLINK_IsHalted()  returns FALSE (0000ms, 0670ms total)
T4984 001:254 JLINK_IsHalted()  returns FALSE (0000ms, 0670ms total)
T4984 001:270 JLINK_IsHalted()  returns FALSE (0000ms, 0670ms total)
T4984 001:286 JLINK_IsHalted()  returns FALSE (0000ms, 0670ms total)
T4984 001:302 JLINK_IsHalted()  returns FALSE (0000ms, 0670ms total)
T4984 001:317 JLINK_IsHalted()  returns FALSE (0000ms, 0670ms total)
T4984 001:333 JLINK_IsHalted()  returns FALSE (0000ms, 0670ms total)
T4984 001:349 JLINK_IsHalted()  returns FALSE (0000ms, 0670ms total)
T4984 001:395 JLINK_IsHalted()  returns FALSE (0000ms, 0670ms total)
T4984 001:411 JLINK_IsHalted()  returns FALSE (0000ms, 0670ms total)
T4984 001:427 JLINK_IsHalted()  returns FALSE (0000ms, 0670ms total)
T4984 001:442 JLINK_IsHalted()  returns FALSE (0000ms, 0670ms total)
T4984 001:457 JLINK_IsHalted()  returns FALSE (0000ms, 0670ms total)
T4984 001:473 JLINK_IsHalted()  returns FALSE (0000ms, 0670ms total)
T4984 001:488 JLINK_IsHalted()  returns FALSE (0000ms, 0670ms total)
T4984 001:503 JLINK_IsHalted()  returns FALSE (0000ms, 0670ms total)
T4984 001:519 JLINK_IsHalted()  returns FALSE (0000ms, 0670ms total)
T4984 001:534 JLINK_IsHalted()  returns FALSE (0000ms, 0670ms total)
T4984 001:550 JLINK_IsHalted() -- CPU_ReadMem(2 bytes @ 0x20000000)  returns TRUE (0003ms, 0673ms total)
T4984 001:553 JLINK_ReadReg(R15 (PC))  returns 0x20000000 (0000ms, 0670ms total)
T4984 001:553 JLINK_ClrBPEx(BPHandle = 0x00000005)  returns 0x00 (0000ms, 0670ms total)
T4984 001:553 JLINK_ReadReg(R0)  returns 0x00000000 (0000ms, 0670ms total)
T4984 001:554 JLINK_WriteReg(R0, 0x00000001)  returns 0x00 (0000ms, 0670ms total)
T4984 001:554 JLINK_WriteReg(R1, 0x00004000)  returns 0x00 (0000ms, 0670ms total)
T4984 001:554 JLINK_WriteReg(R2, 0x000000FF)  returns 0x00 (0000ms, 0670ms total)
T4984 001:554 JLINK_WriteReg(R3, 0x00000000)  returns 0x00 (0000ms, 0670ms total)
T4984 001:554 JLINK_WriteReg(R4, 0x00000000)  returns 0x00 (0000ms, 0670ms total)
T4984 001:554 JLINK_WriteReg(R5, 0x00000000)  returns 0x00 (0000ms, 0670ms total)
T4984 001:554 JLINK_WriteReg(R6, 0x00000000)  returns 0x00 (0000ms, 0670ms total)
T4984 001:554 JLINK_WriteReg(R7, 0x00000000)  returns 0x00 (0000ms, 0670ms total)
T4984 001:554 JLINK_WriteReg(R8, 0x00000000)  returns 0x00 (0000ms, 0670ms total)
T4984 001:554 JLINK_WriteReg(R9, 0x2000017C)  returns 0x00 (0000ms, 0670ms total)
T4984 001:554 JLINK_WriteReg(R10, 0x00000000)  returns 0x00 (0000ms, 0670ms total)
T4984 001:554 JLINK_WriteReg(R11, 0x00000000)  returns 0x00 (0000ms, 0670ms total)
T4984 001:554 JLINK_WriteReg(R12, 0x00000000)  returns 0x00 (0000ms, 0670ms total)
T4984 001:554 JLINK_WriteReg(R13 (SP), 0x20001000)  returns 0x00 (0000ms, 0670ms total)
T4984 001:554 JLINK_WriteReg(R14, 0x20000001)  returns 0x00 (0000ms, 0670ms total)
T4984 001:554 JLINK_WriteReg(R15 (PC), 0x20000082)  returns 0x00 (0000ms, 0670ms total)
T4984 001:554 JLINK_WriteReg(XPSR, 0x01000000)  returns 0x00 (0000ms, 0670ms total)
T4984 001:554 JLINK_WriteReg(MSP, 0x20001000)  returns 0x00 (0000ms, 0670ms total)
T4984 001:554 JLINK_WriteReg(PSP, 0x20001000)  returns 0x00 (0000ms, 0670ms total)
T4984 001:554 JLINK_WriteReg(CFBP, 0x00000000)  returns 0x00 (0000ms, 0670ms total)
T4984 001:554 JLINK_SetBPEx(Addr = 0x20000000, Type = 0xFFFFFFF2)  returns 0x00000006 (0000ms, 0670ms total)
T4984 001:554 JLINK_Go() (0002ms, 0672ms total)
T4984 001:556 JLINK_IsHalted() -- CPU_ReadMem(2 bytes @ 0x20000000)  returns TRUE (0004ms, 0676ms total)
T4984 001:560 JLINK_ReadReg(R15 (PC))  returns 0x20000000 (0000ms, 0672ms total)
T4984 001:560 JLINK_ClrBPEx(BPHandle = 0x00000006)  returns 0x00 (0000ms, 0672ms total)
T4984 001:560 JLINK_ReadReg(R0)  returns 0x00000000 (0000ms, 0672ms total)
T4984 001:655 JLINK_WriteMem(0x20000000, 0x0180 Bytes, ...) - Data: 00 BE 0A E0 0D 78 2D 06 68 40 08 24 40 00 00 D3 ... -- CPU_WriteMem(384 bytes @ 0x20000000)  returns 0x180 (0005ms, 0677ms total)
T4984 001:660 JLINK_WriteReg(R0, 0x08000000)  returns 0x00 (0000ms, 0677ms total)
T4984 001:660 JLINK_WriteReg(R1, 0x00B71B00)  returns 0x00 (0000ms, 0677ms total)
T4984 001:660 JLINK_WriteReg(R2, 0x00000002)  returns 0x00 (0000ms, 0677ms total)
T4984 001:660 JLINK_WriteReg(R3, 0x00000000)  returns 0x00 (0000ms, 0677ms total)
T4984 001:660 JLINK_WriteReg(R4, 0x00000000)  returns 0x00 (0000ms, 0677ms total)
T4984 001:660 JLINK_WriteReg(R5, 0x00000000)  returns 0x00 (0000ms, 0677ms total)
T4984 001:660 JLINK_WriteReg(R6, 0x00000000)  returns 0x00 (0000ms, 0677ms total)
T4984 001:660 JLINK_WriteReg(R7, 0x00000000)  returns 0x00 (0000ms, 0677ms total)
T4984 001:660 JLINK_WriteReg(R8, 0x00000000)  returns 0x00 (0000ms, 0677ms total)
T4984 001:660 JLINK_WriteReg(R9, 0x2000017C)  returns 0x00 (0000ms, 0677ms total)
T4984 001:660 JLINK_WriteReg(R10, 0x00000000)  returns 0x00 (0000ms, 0677ms total)
T4984 001:660 JLINK_WriteReg(R11, 0x00000000)  returns 0x00 (0001ms, 0678ms total)
T4984 001:661 JLINK_WriteReg(R12, 0x00000000)  returns 0x00 (0000ms, 0678ms total)
T4984 001:661 JLINK_WriteReg(R13 (SP), 0x20001000)  returns 0x00 (0000ms, 0678ms total)
T4984 001:661 JLINK_WriteReg(R14, 0x20000001)  returns 0x00 (0000ms, 0678ms total)
T4984 001:661 JLINK_WriteReg(R15 (PC), 0x20000054)  returns 0x00 (0000ms, 0678ms total)
T4984 001:661 JLINK_WriteReg(XPSR, 0x01000000)  returns 0x00 (0000ms, 0678ms total)
T4984 001:661 JLINK_WriteReg(MSP, 0x20001000)  returns 0x00 (0000ms, 0678ms total)
T4984 001:661 JLINK_WriteReg(PSP, 0x20001000)  returns 0x00 (0000ms, 0678ms total)
T4984 001:661 JLINK_WriteReg(CFBP, 0x00000000)  returns 0x00 (0000ms, 0678ms total)
T4984 001:661 JLINK_SetBPEx(Addr = 0x20000000, Type = 0xFFFFFFF2) -- CPU_ReadMem(2 bytes @ 0x20000000)  returns 0x00000007 (0000ms, 0678ms total)
T4984 001:661 JLINK_Go() -- CPU_WriteMem(2 bytes @ 0x20000000) (0002ms, 0680ms total)
T4984 001:663 JLINK_IsHalted() -- CPU_ReadMem(2 bytes @ 0x20000000)  returns TRUE (0003ms, 0683ms total)
T4984 001:666 JLINK_ReadReg(R15 (PC))  returns 0x20000000 (0000ms, 0680ms total)
T4984 001:666 JLINK_ClrBPEx(BPHandle = 0x00000007)  returns 0x00 (0000ms, 0680ms total)
T4984 001:666 JLINK_ReadReg(R0)  returns 0x00000000 (0000ms, 0680ms total)
T4984 001:669 JLINK_WriteMem(0x20000180, 0x0400 Bytes, ...) - Data: 68 08 00 20 9D 01 00 08 A5 01 00 08 A7 01 00 08 ... -- CPU_WriteMem(1024 bytes @ 0x20000180)  returns 0x400 (0012ms, 0692ms total)
T4984 001:681 JLINK_WriteReg(R0, 0x08000000)  returns 0x00 (0000ms, 0692ms total)
T4984 001:681 JLINK_WriteReg(R1, 0x00000400)  returns 0x00 (0000ms, 0692ms total)
T4984 001:681 JLINK_WriteReg(R2, 0x20000180)  returns 0x00 (0000ms, 0692ms total)
T4984 001:681 JLINK_WriteReg(R3, 0x00000000)  returns 0x00 (0000ms, 0692ms total)
T4984 001:681 JLINK_WriteReg(R4, 0x00000000)  returns 0x00 (0000ms, 0692ms total)
T4984 001:681 JLINK_WriteReg(R5, 0x00000000)  returns 0x00 (0000ms, 0692ms total)
T4984 001:681 JLINK_WriteReg(R6, 0x00000000)  returns 0x00 (0000ms, 0692ms total)
T4984 001:681 JLINK_WriteReg(R7, 0x00000000)  returns 0x00 (0000ms, 0692ms total)
T4984 001:681 JLINK_WriteReg(R8, 0x00000000)  returns 0x00 (0000ms, 0692ms total)
T4984 001:681 JLINK_WriteReg(R9, 0x2000017C)  returns 0x00 (0000ms, 0692ms total)
T4984 001:681 JLINK_WriteReg(R10, 0x00000000)  returns 0x00 (0000ms, 0692ms total)
T4984 001:681 JLINK_WriteReg(R11, 0x00000000)  returns 0x00 (0001ms, 0693ms total)
T4984 001:682 JLINK_WriteReg(R12, 0x00000000)  returns 0x00 (0000ms, 0693ms total)
T4984 001:682 JLINK_WriteReg(R13 (SP), 0x20001000)  returns 0x00 (0000ms, 0693ms total)
T4984 001:682 JLINK_WriteReg(R14, 0x20000001)  returns 0x00 (0000ms, 0693ms total)
T4984 001:682 JLINK_WriteReg(R15 (PC), 0x20000108)  returns 0x00 (0000ms, 0693ms total)
T4984 001:682 JLINK_WriteReg(XPSR, 0x01000000)  returns 0x00 (0000ms, 0693ms total)
T4984 001:682 JLINK_WriteReg(MSP, 0x20001000)  returns 0x00 (0000ms, 0693ms total)
T4984 001:682 JLINK_WriteReg(PSP, 0x20001000)  returns 0x00 (0000ms, 0693ms total)
T4984 001:682 JLINK_WriteReg(CFBP, 0x00000000)  returns 0x00 (0000ms, 0693ms total)
T4984 001:682 JLINK_SetBPEx(Addr = 0x20000000, Type = 0xFFFFFFF2)  returns 0x00000008 (0000ms, 0693ms total)
T4984 001:682 JLINK_Go() (0001ms, 0694ms total)
T4984 001:683 JLINK_IsHalted()  returns FALSE (0001ms, 0695ms total)
T4984 001:707 JLINK_IsHalted() -- CPU_ReadMem(2 bytes @ 0x20000000)  returns TRUE (0003ms, 0697ms total)
T4984 001:710 JLINK_ReadReg(R15 (PC))  returns 0x20000000 (0000ms, 0694ms total)
T4984 001:710 JLINK_ClrBPEx(BPHandle = 0x00000008)  returns 0x00 (0000ms, 0694ms total)
T4984 001:710 JLINK_ReadReg(R0)  returns 0x00000000 (0000ms, 0694ms total)
T4984 001:712 JLINK_WriteMem(0x20000180, 0x0400 Bytes, ...) - Data: 50 EA 01 04 04 BF 10 BC 70 47 49 B1 CC F1 20 04 ... -- CPU_WriteMem(1024 bytes @ 0x20000180)  returns 0x400 (0013ms, 0707ms total)
T4984 001:725 JLINK_WriteReg(R0, 0x08000400)  returns 0x00 (0000ms, 0707ms total)
T4984 001:725 JLINK_WriteReg(R1, 0x00000400)  returns 0x00 (0000ms, 0707ms total)
T4984 001:725 JLINK_WriteReg(R2, 0x20000180)  returns 0x00 (0000ms, 0707ms total)
T4984 001:725 JLINK_WriteReg(R3, 0x00000000)  returns 0x00 (0000ms, 0707ms total)
T4984 001:725 JLINK_WriteReg(R4, 0x00000000)  returns 0x00 (0000ms, 0707ms total)
T4984 001:725 JLINK_WriteReg(R5, 0x00000000)  returns 0x00 (0000ms, 0707ms total)
T4984 001:725 JLINK_WriteReg(R6, 0x00000000)  returns 0x00 (0000ms, 0707ms total)
T4984 001:725 JLINK_WriteReg(R7, 0x00000000)  returns 0x00 (0000ms, 0707ms total)
T4984 001:725 JLINK_WriteReg(R8, 0x00000000)  returns 0x00 (0000ms, 0707ms total)
T4984 001:725 JLINK_WriteReg(R9, 0x2000017C)  returns 0x00 (0000ms, 0707ms total)
T4984 001:725 JLINK_WriteReg(R10, 0x00000000)  returns 0x00 (0000ms, 0707ms total)
T4984 001:725 JLINK_WriteReg(R11, 0x00000000)  returns 0x00 (0000ms, 0707ms total)
T4984 001:725 JLINK_WriteReg(R12, 0x00000000)  returns 0x00 (0000ms, 0707ms total)
T4984 001:725 JLINK_WriteReg(R13 (SP), 0x20001000)  returns 0x00 (0000ms, 0707ms total)
T4984 001:725 JLINK_WriteReg(R14, 0x20000001)  returns 0x00 (0000ms, 0707ms total)
T4984 001:725 JLINK_WriteReg(R15 (PC), 0x20000108)  returns 0x00 (0000ms, 0707ms total)
T4984 001:725 JLINK_WriteReg(XPSR, 0x01000000)  returns 0x00 (0000ms, 0707ms total)
T4984 001:725 JLINK_WriteReg(MSP, 0x20001000)  returns 0x00 (0000ms, 0707ms total)
T4984 001:725 JLINK_WriteReg(PSP, 0x20001000)  returns 0x00 (0000ms, 0707ms total)
T4984 001:725 JLINK_WriteReg(CFBP, 0x00000000)  returns 0x00 (0000ms, 0707ms total)
T4984 001:725 JLINK_SetBPEx(Addr = 0x20000000, Type = 0xFFFFFFF2)  returns 0x00000009 (0000ms, 0707ms total)
T4984 001:725 JLINK_Go() (0002ms, 0709ms total)
T4984 001:727 JLINK_IsHalted()  returns FALSE (0001ms, 0710ms total)
T4984 001:738 JLINK_IsHalted() -- CPU_ReadMem(2 bytes @ 0x20000000)  returns TRUE (0004ms, 0713ms total)
T4984 001:742 JLINK_ReadReg(R15 (PC))  returns 0x20000000 (0000ms, 0709ms total)
T4984 001:742 JLINK_ClrBPEx(BPHandle = 0x00000009)  returns 0x00 (0000ms, 0709ms total)
T4984 001:742 JLINK_ReadReg(R0)  returns 0x00000000 (0000ms, 0709ms total)
T4984 001:743 JLINK_WriteMem(0x20000180, 0x0400 Bytes, ...) - Data: 20 3A 41 FA 02 F0 43 EA E0 73 06 E0 41 FA 02 F3 ... -- CPU_WriteMem(1024 bytes @ 0x20000180)  returns 0x400 (0012ms, 0721ms total)
T4984 001:755 JLINK_WriteReg(R0, 0x08000800)  returns 0x00 (0000ms, 0721ms total)
T4984 001:755 JLINK_WriteReg(R1, 0x00000400)  returns 0x00 (0000ms, 0721ms total)
T4984 001:755 JLINK_WriteReg(R2, 0x20000180)  returns 0x00 (0000ms, 0721ms total)
T4984 001:755 JLINK_WriteReg(R3, 0x00000000)  returns 0x00 (0000ms, 0721ms total)
T4984 001:755 JLINK_WriteReg(R4, 0x00000000)  returns 0x00 (0000ms, 0721ms total)
T4984 001:755 JLINK_WriteReg(R5, 0x00000000)  returns 0x00 (0000ms, 0721ms total)
T4984 001:755 JLINK_WriteReg(R6, 0x00000000)  returns 0x00 (0000ms, 0721ms total)
T4984 001:755 JLINK_WriteReg(R7, 0x00000000)  returns 0x00 (0000ms, 0721ms total)
T4984 001:755 JLINK_WriteReg(R8, 0x00000000)  returns 0x00 (0000ms, 0721ms total)
T4984 001:755 JLINK_WriteReg(R9, 0x2000017C)  returns 0x00 (0000ms, 0721ms total)
T4984 001:755 JLINK_WriteReg(R10, 0x00000000)  returns 0x00 (0000ms, 0721ms total)
T4984 001:755 JLINK_WriteReg(R11, 0x00000000)  returns 0x00 (0000ms, 0721ms total)
T4984 001:755 JLINK_WriteReg(R12, 0x00000000)  returns 0x00 (0000ms, 0721ms total)
T4984 001:755 JLINK_WriteReg(R13 (SP), 0x20001000)  returns 0x00 (0000ms, 0721ms total)
T4984 001:755 JLINK_WriteReg(R14, 0x20000001)  returns 0x00 (0000ms, 0721ms total)
T4984 001:755 JLINK_WriteReg(R15 (PC), 0x20000108)  returns 0x00 (0000ms, 0721ms total)
T4984 001:755 JLINK_WriteReg(XPSR, 0x01000000)  returns 0x00 (0000ms, 0721ms total)
T4984 001:755 JLINK_WriteReg(MSP, 0x20001000)  returns 0x00 (0000ms, 0721ms total)
T4984 001:755 JLINK_WriteReg(PSP, 0x20001000)  returns 0x00 (0000ms, 0721ms total)
T4984 001:755 JLINK_WriteReg(CFBP, 0x00000000)  returns 0x00 (0000ms, 0721ms total)
T4984 001:755 JLINK_SetBPEx(Addr = 0x20000000, Type = 0xFFFFFFF2)  returns 0x0000000A (0000ms, 0721ms total)
T4984 001:755 JLINK_Go() (0002ms, 0723ms total)
T4984 001:757 JLINK_IsHalted()  returns FALSE (0000ms, 0723ms total)
T4984 001:769 JLINK_IsHalted() -- CPU_ReadMem(2 bytes @ 0x20000000)  returns TRUE (0004ms, 0727ms total)
T4984 001:773 JLINK_ReadReg(R15 (PC))  returns 0x20000000 (0000ms, 0723ms total)
T4984 001:773 JLINK_ClrBPEx(BPHandle = 0x0000000A)  returns 0x00 (0000ms, 0723ms total)
T4984 001:773 JLINK_ReadReg(R0)  returns 0x00000000 (0000ms, 0723ms total)
T4984 001:773 JLINK_WriteMem(0x20000180, 0x0400 Bytes, ...) - Data: 07 00 69 46 04 48 00 F0 FB F8 4F F4 80 61 02 48 ... -- CPU_WriteMem(1024 bytes @ 0x20000180)  returns 0x400 (0012ms, 0735ms total)
T4984 001:785 JLINK_WriteReg(R0, 0x08000C00)  returns 0x00 (0000ms, 0735ms total)
T4984 001:785 JLINK_WriteReg(R1, 0x00000400)  returns 0x00 (0000ms, 0735ms total)
T4984 001:785 JLINK_WriteReg(R2, 0x20000180)  returns 0x00 (0000ms, 0735ms total)
T4984 001:785 JLINK_WriteReg(R3, 0x00000000)  returns 0x00 (0000ms, 0735ms total)
T4984 001:785 JLINK_WriteReg(R4, 0x00000000)  returns 0x00 (0000ms, 0735ms total)
T4984 001:785 JLINK_WriteReg(R5, 0x00000000)  returns 0x00 (0000ms, 0735ms total)
T4984 001:785 JLINK_WriteReg(R6, 0x00000000)  returns 0x00 (0000ms, 0735ms total)
T4984 001:785 JLINK_WriteReg(R7, 0x00000000)  returns 0x00 (0000ms, 0735ms total)
T4984 001:785 JLINK_WriteReg(R8, 0x00000000)  returns 0x00 (0000ms, 0735ms total)
T4984 001:785 JLINK_WriteReg(R9, 0x2000017C)  returns 0x00 (0000ms, 0735ms total)
T4984 001:785 JLINK_WriteReg(R10, 0x00000000)  returns 0x00 (0000ms, 0735ms total)
T4984 001:785 JLINK_WriteReg(R11, 0x00000000)  returns 0x00 (0000ms, 0735ms total)
T4984 001:785 JLINK_WriteReg(R12, 0x00000000)  returns 0x00 (0000ms, 0735ms total)
T4984 001:785 JLINK_WriteReg(R13 (SP), 0x20001000)  returns 0x00 (0000ms, 0735ms total)
T4984 001:785 JLINK_WriteReg(R14, 0x20000001)  returns 0x00 (0000ms, 0735ms total)
T4984 001:785 JLINK_WriteReg(R15 (PC), 0x20000108)  returns 0x00 (0000ms, 0735ms total)
T4984 001:785 JLINK_WriteReg(XPSR, 0x01000000)  returns 0x00 (0000ms, 0735ms total)
T4984 001:785 JLINK_WriteReg(MSP, 0x20001000)  returns 0x00 (0000ms, 0735ms total)
T4984 001:785 JLINK_WriteReg(PSP, 0x20001000)  returns 0x00 (0000ms, 0735ms total)
T4984 001:785 JLINK_WriteReg(CFBP, 0x00000000)  returns 0x00 (0000ms, 0735ms total)
T4984 001:785 JLINK_SetBPEx(Addr = 0x20000000, Type = 0xFFFFFFF2)  returns 0x0000000B (0000ms, 0735ms total)
T4984 001:785 JLINK_Go() (0003ms, 0738ms total)
T4984 001:788 JLINK_IsHalted()  returns FALSE (0001ms, 0739ms total)
T4984 001:801 JLINK_IsHalted() -- CPU_ReadMem(2 bytes @ 0x20000000)  returns TRUE (0004ms, 0742ms total)
T4984 001:805 JLINK_ReadReg(R15 (PC))  returns 0x20000000 (0000ms, 0738ms total)
T4984 001:805 JLINK_ClrBPEx(BPHandle = 0x0000000B)  returns 0x00 (0000ms, 0738ms total)
T4984 001:805 JLINK_ReadReg(R0)  returns 0x00000000 (0000ms, 0738ms total)
T4984 001:809 JLINK_WriteMem(0x20000180, 0x0400 Bytes, ...) - Data: 02 F0 E6 FA 80 21 0C 48 FF F7 65 FF 10 B1 44 F0 ... -- CPU_WriteMem(1024 bytes @ 0x20000180)  returns 0x400 (0011ms, 0749ms total)
T4984 001:820 JLINK_WriteReg(R0, 0x08001000)  returns 0x00 (0000ms, 0749ms total)
T4984 001:820 JLINK_WriteReg(R1, 0x00000400)  returns 0x00 (0001ms, 0750ms total)
T4984 001:821 JLINK_WriteReg(R2, 0x20000180)  returns 0x00 (0000ms, 0750ms total)
T4984 001:821 JLINK_WriteReg(R3, 0x00000000)  returns 0x00 (0000ms, 0750ms total)
T4984 001:821 JLINK_WriteReg(R4, 0x00000000)  returns 0x00 (0000ms, 0750ms total)
T4984 001:821 JLINK_WriteReg(R5, 0x00000000)  returns 0x00 (0000ms, 0750ms total)
T4984 001:821 JLINK_WriteReg(R6, 0x00000000)  returns 0x00 (0000ms, 0750ms total)
T4984 001:821 JLINK_WriteReg(R7, 0x00000000)  returns 0x00 (0000ms, 0750ms total)
T4984 001:821 JLINK_WriteReg(R8, 0x00000000)  returns 0x00 (0000ms, 0750ms total)
T4984 001:821 JLINK_WriteReg(R9, 0x2000017C)  returns 0x00 (0000ms, 0750ms total)
T4984 001:821 JLINK_WriteReg(R10, 0x00000000)  returns 0x00 (0000ms, 0750ms total)
T4984 001:821 JLINK_WriteReg(R11, 0x00000000)  returns 0x00 (0000ms, 0750ms total)
T4984 001:821 JLINK_WriteReg(R12, 0x00000000)  returns 0x00 (0000ms, 0750ms total)
T4984 001:821 JLINK_WriteReg(R13 (SP), 0x20001000)  returns 0x00 (0000ms, 0750ms total)
T4984 001:821 JLINK_WriteReg(R14, 0x20000001)  returns 0x00 (0000ms, 0750ms total)
T4984 001:821 JLINK_WriteReg(R15 (PC), 0x20000108)  returns 0x00 (0000ms, 0750ms total)
T4984 001:821 JLINK_WriteReg(XPSR, 0x01000000)  returns 0x00 (0000ms, 0750ms total)
T4984 001:821 JLINK_WriteReg(MSP, 0x20001000)  returns 0x00 (0000ms, 0750ms total)
T4984 001:821 JLINK_WriteReg(PSP, 0x20001000)  returns 0x00 (0000ms, 0750ms total)
T4984 001:821 JLINK_WriteReg(CFBP, 0x00000000)  returns 0x00 (0000ms, 0750ms total)
T4984 001:821 JLINK_SetBPEx(Addr = 0x20000000, Type = 0xFFFFFFF2)  returns 0x0000000C (0000ms, 0750ms total)
T4984 001:821 JLINK_Go() (0002ms, 0752ms total)
T4984 001:823 JLINK_IsHalted()  returns FALSE (0000ms, 0752ms total)
T4984 001:832 JLINK_IsHalted() -- CPU_ReadMem(2 bytes @ 0x20000000)  returns TRUE (0004ms, 0756ms total)
T4984 001:836 JLINK_ReadReg(R15 (PC))  returns 0x20000000 (0000ms, 0752ms total)
T4984 001:836 JLINK_ClrBPEx(BPHandle = 0x0000000C)  returns 0x00 (0000ms, 0752ms total)
T4984 001:836 JLINK_ReadReg(R0)  returns 0x00000000 (0000ms, 0752ms total)
T4984 001:836 JLINK_WriteMem(0x20000180, 0x0400 Bytes, ...) - Data: 01 F0 F0 FB 02 20 01 F0 ED FB 8D 20 01 F0 EA FB ... -- CPU_WriteMem(1024 bytes @ 0x20000180)  returns 0x400 (0013ms, 0765ms total)
T4984 001:849 JLINK_WriteReg(R0, 0x08001400)  returns 0x00 (0000ms, 0765ms total)
T4984 001:849 JLINK_WriteReg(R1, 0x00000400)  returns 0x00 (0000ms, 0765ms total)
T4984 001:849 JLINK_WriteReg(R2, 0x20000180)  returns 0x00 (0000ms, 0765ms total)
T4984 001:849 JLINK_WriteReg(R3, 0x00000000)  returns 0x00 (0000ms, 0765ms total)
T4984 001:849 JLINK_WriteReg(R4, 0x00000000)  returns 0x00 (0000ms, 0765ms total)
T4984 001:849 JLINK_WriteReg(R5, 0x00000000)  returns 0x00 (0000ms, 0765ms total)
T4984 001:849 JLINK_WriteReg(R6, 0x00000000)  returns 0x00 (0000ms, 0765ms total)
T4984 001:849 JLINK_WriteReg(R7, 0x00000000)  returns 0x00 (0000ms, 0765ms total)
T4984 001:849 JLINK_WriteReg(R8, 0x00000000)  returns 0x00 (0000ms, 0765ms total)
T4984 001:849 JLINK_WriteReg(R9, 0x2000017C)  returns 0x00 (0000ms, 0765ms total)
T4984 001:849 JLINK_WriteReg(R10, 0x00000000)  returns 0x00 (0000ms, 0765ms total)
T4984 001:849 JLINK_WriteReg(R11, 0x00000000)  returns 0x00 (0000ms, 0765ms total)
T4984 001:849 JLINK_WriteReg(R12, 0x00000000)  returns 0x00 (0000ms, 0765ms total)
T4984 001:849 JLINK_WriteReg(R13 (SP), 0x20001000)  returns 0x00 (0000ms, 0765ms total)
T4984 001:849 JLINK_WriteReg(R14, 0x20000001)  returns 0x00 (0000ms, 0765ms total)
T4984 001:849 JLINK_WriteReg(R15 (PC), 0x20000108)  returns 0x00 (0000ms, 0765ms total)
T4984 001:849 JLINK_WriteReg(XPSR, 0x01000000)  returns 0x00 (0000ms, 0765ms total)
T4984 001:849 JLINK_WriteReg(MSP, 0x20001000)  returns 0x00 (0000ms, 0765ms total)
T4984 001:849 JLINK_WriteReg(PSP, 0x20001000)  returns 0x00 (0000ms, 0765ms total)
T4984 001:849 JLINK_WriteReg(CFBP, 0x00000000)  returns 0x00 (0000ms, 0765ms total)
T4984 001:849 JLINK_SetBPEx(Addr = 0x20000000, Type = 0xFFFFFFF2)  returns 0x0000000D (0000ms, 0765ms total)
T4984 001:849 JLINK_Go() (0002ms, 0767ms total)
T4984 001:851 JLINK_IsHalted()  returns FALSE (0001ms, 0768ms total)
T4984 001:864 JLINK_IsHalted() -- CPU_ReadMem(2 bytes @ 0x20000000)  returns TRUE (0003ms, 0770ms total)
T4984 001:867 JLINK_ReadReg(R15 (PC))  returns 0x20000000 (0000ms, 0767ms total)
T4984 001:867 JLINK_ClrBPEx(BPHandle = 0x0000000D)  returns 0x00 (0000ms, 0767ms total)
T4984 001:867 JLINK_ReadReg(R0)  returns 0x00000000 (0000ms, 0767ms total)
T4984 001:868 JLINK_WriteMem(0x20000180, 0x0400 Bytes, ...) - Data: 04 E0 03 4A 12 68 82 43 01 4B 1A 60 70 47 00 00 ... -- CPU_WriteMem(1024 bytes @ 0x20000180)  returns 0x400 (0013ms, 0780ms total)
T4984 001:881 JLINK_WriteReg(R0, 0x08001800)  returns 0x00 (0000ms, 0780ms total)
T4984 001:881 JLINK_WriteReg(R1, 0x00000400)  returns 0x00 (0000ms, 0780ms total)
T4984 001:881 JLINK_WriteReg(R2, 0x20000180)  returns 0x00 (0000ms, 0780ms total)
T4984 001:881 JLINK_WriteReg(R3, 0x00000000)  returns 0x00 (0000ms, 0780ms total)
T4984 001:881 JLINK_WriteReg(R4, 0x00000000)  returns 0x00 (0000ms, 0780ms total)
T4984 001:881 JLINK_WriteReg(R5, 0x00000000)  returns 0x00 (0000ms, 0780ms total)
T4984 001:881 JLINK_WriteReg(R6, 0x00000000)  returns 0x00 (0000ms, 0780ms total)
T4984 001:881 JLINK_WriteReg(R7, 0x00000000)  returns 0x00 (0000ms, 0780ms total)
T4984 001:881 JLINK_WriteReg(R8, 0x00000000)  returns 0x00 (0000ms, 0780ms total)
T4984 001:881 JLINK_WriteReg(R9, 0x2000017C)  returns 0x00 (0000ms, 0780ms total)
T4984 001:881 JLINK_WriteReg(R10, 0x00000000)  returns 0x00 (0000ms, 0780ms total)
T4984 001:881 JLINK_WriteReg(R11, 0x00000000)  returns 0x00 (0000ms, 0780ms total)
T4984 001:881 JLINK_WriteReg(R12, 0x00000000)  returns 0x00 (0000ms, 0780ms total)
T4984 001:881 JLINK_WriteReg(R13 (SP), 0x20001000)  returns 0x00 (0000ms, 0780ms total)
T4984 001:881 JLINK_WriteReg(R14, 0x20000001)  returns 0x00 (0000ms, 0780ms total)
T4984 001:881 JLINK_WriteReg(R15 (PC), 0x20000108)  returns 0x00 (0000ms, 0780ms total)
T4984 001:881 JLINK_WriteReg(XPSR, 0x01000000)  returns 0x00 (0000ms, 0780ms total)
T4984 001:881 JLINK_WriteReg(MSP, 0x20001000)  returns 0x00 (0000ms, 0780ms total)
T4984 001:881 JLINK_WriteReg(PSP, 0x20001000)  returns 0x00 (0000ms, 0780ms total)
T4984 001:881 JLINK_WriteReg(CFBP, 0x00000000)  returns 0x00 (0000ms, 0780ms total)
T4984 001:881 JLINK_SetBPEx(Addr = 0x20000000, Type = 0xFFFFFFF2)  returns 0x0000000E (0000ms, 0780ms total)
T4984 001:881 JLINK_Go() (0002ms, 0782ms total)
T4984 001:883 JLINK_IsHalted()  returns FALSE (0000ms, 0782ms total)
T4984 001:885 JLINK_IsHalted()  returns FALSE (0000ms, 0782ms total)
T4984 001:887 JLINK_IsHalted()  returns FALSE (0000ms, 0782ms total)
T4984 001:889 JLINK_IsHalted() -- CPU_ReadMem(2 bytes @ 0x20000000)  returns TRUE (0003ms, 0785ms total)
T4984 001:892 JLINK_ReadReg(R15 (PC))  returns 0x20000000 (0000ms, 0782ms total)
T4984 001:892 JLINK_ClrBPEx(BPHandle = 0x0000000E)  returns 0x00 (0000ms, 0782ms total)
T4984 001:892 JLINK_ReadReg(R0)  returns 0x00000000 (0000ms, 0782ms total)
T4984 001:894 JLINK_WriteMem(0x20000180, 0x0400 Bytes, ...) - Data: 08 60 0E 48 00 68 0E 49 08 40 0C 49 08 60 0D 48 ... -- CPU_WriteMem(1024 bytes @ 0x20000180)  returns 0x400 (0012ms, 0794ms total)
T4984 001:906 JLINK_WriteReg(R0, 0x08001C00)  returns 0x00 (0000ms, 0794ms total)
T4984 001:906 JLINK_WriteReg(R1, 0x00000400)  returns 0x00 (0000ms, 0794ms total)
T4984 001:906 JLINK_WriteReg(R2, 0x20000180)  returns 0x00 (0000ms, 0794ms total)
T4984 001:906 JLINK_WriteReg(R3, 0x00000000)  returns 0x00 (0000ms, 0794ms total)
T4984 001:906 JLINK_WriteReg(R4, 0x00000000)  returns 0x00 (0001ms, 0795ms total)
T4984 001:907 JLINK_WriteReg(R5, 0x00000000)  returns 0x00 (0000ms, 0795ms total)
T4984 001:907 JLINK_WriteReg(R6, 0x00000000)  returns 0x00 (0000ms, 0795ms total)
T4984 001:907 JLINK_WriteReg(R7, 0x00000000)  returns 0x00 (0000ms, 0795ms total)
T4984 001:907 JLINK_WriteReg(R8, 0x00000000)  returns 0x00 (0000ms, 0795ms total)
T4984 001:907 JLINK_WriteReg(R9, 0x2000017C)  returns 0x00 (0000ms, 0795ms total)
T4984 001:907 JLINK_WriteReg(R10, 0x00000000)  returns 0x00 (0000ms, 0795ms total)
T4984 001:907 JLINK_WriteReg(R11, 0x00000000)  returns 0x00 (0000ms, 0795ms total)
T4984 001:907 JLINK_WriteReg(R12, 0x00000000)  returns 0x00 (0000ms, 0795ms total)
T4984 001:907 JLINK_WriteReg(R13 (SP), 0x20001000)  returns 0x00 (0000ms, 0795ms total)
T4984 001:907 JLINK_WriteReg(R14, 0x20000001)  returns 0x00 (0000ms, 0795ms total)
T4984 001:907 JLINK_WriteReg(R15 (PC), 0x20000108)  returns 0x00 (0000ms, 0795ms total)
T4984 001:907 JLINK_WriteReg(XPSR, 0x01000000)  returns 0x00 (0000ms, 0795ms total)
T4984 001:907 JLINK_WriteReg(MSP, 0x20001000)  returns 0x00 (0000ms, 0795ms total)
T4984 001:907 JLINK_WriteReg(PSP, 0x20001000)  returns 0x00 (0000ms, 0795ms total)
T4984 001:907 JLINK_WriteReg(CFBP, 0x00000000)  returns 0x00 (0000ms, 0795ms total)
T4984 001:907 JLINK_SetBPEx(Addr = 0x20000000, Type = 0xFFFFFFF2)  returns 0x0000000F (0000ms, 0795ms total)
T4984 001:907 JLINK_Go() (0002ms, 0797ms total)
T4984 001:909 JLINK_IsHalted()  returns FALSE (0000ms, 0797ms total)
T4984 001:922 JLINK_IsHalted() -- CPU_ReadMem(2 bytes @ 0x20000000)  returns TRUE (0003ms, 0800ms total)
T4984 001:925 JLINK_ReadReg(R15 (PC))  returns 0x20000000 (0000ms, 0797ms total)
T4984 001:925 JLINK_ClrBPEx(BPHandle = 0x0000000F)  returns 0x00 (0000ms, 0797ms total)
T4984 001:925 JLINK_ReadReg(R0)  returns 0x00000000 (0000ms, 0797ms total)
T4984 001:926 JLINK_WriteMem(0x20000180, 0x0400 Bytes, ...) - Data: 40 78 1B 49 49 1E 09 78 CD E9 01 02 00 91 17 48 ... -- CPU_WriteMem(1024 bytes @ 0x20000180)  returns 0x400 (0012ms, 0809ms total)
T4984 001:938 JLINK_WriteReg(R0, 0x08002000)  returns 0x00 (0000ms, 0809ms total)
T4984 001:938 JLINK_WriteReg(R1, 0x00000400)  returns 0x00 (0000ms, 0809ms total)
T4984 001:938 JLINK_WriteReg(R2, 0x20000180)  returns 0x00 (0000ms, 0809ms total)
T4984 001:939 JLINK_WriteReg(R3, 0x00000000)  returns 0x00 (0000ms, 0810ms total)
T4984 001:939 JLINK_WriteReg(R4, 0x00000000)  returns 0x00 (0000ms, 0810ms total)
T4984 001:939 JLINK_WriteReg(R5, 0x00000000)  returns 0x00 (0000ms, 0810ms total)
T4984 001:939 JLINK_WriteReg(R6, 0x00000000)  returns 0x00 (0000ms, 0810ms total)
T4984 001:939 JLINK_WriteReg(R7, 0x00000000)  returns 0x00 (0000ms, 0810ms total)
T4984 001:939 JLINK_WriteReg(R8, 0x00000000)  returns 0x00 (0000ms, 0810ms total)
T4984 001:939 JLINK_WriteReg(R9, 0x2000017C)  returns 0x00 (0000ms, 0810ms total)
T4984 001:939 JLINK_WriteReg(R10, 0x00000000)  returns 0x00 (0000ms, 0810ms total)
T4984 001:939 JLINK_WriteReg(R11, 0x00000000)  returns 0x00 (0000ms, 0810ms total)
T4984 001:939 JLINK_WriteReg(R12, 0x00000000)  returns 0x00 (0000ms, 0810ms total)
T4984 001:939 JLINK_WriteReg(R13 (SP), 0x20001000)  returns 0x00 (0000ms, 0810ms total)
T4984 001:939 JLINK_WriteReg(R14, 0x20000001)  returns 0x00 (0000ms, 0810ms total)
T4984 001:939 JLINK_WriteReg(R15 (PC), 0x20000108)  returns 0x00 (0000ms, 0810ms total)
T4984 001:939 JLINK_WriteReg(XPSR, 0x01000000)  returns 0x00 (0000ms, 0810ms total)
T4984 001:939 JLINK_WriteReg(MSP, 0x20001000)  returns 0x00 (0000ms, 0810ms total)
T4984 001:939 JLINK_WriteReg(PSP, 0x20001000)  returns 0x00 (0000ms, 0810ms total)
T4984 001:939 JLINK_WriteReg(CFBP, 0x00000000)  returns 0x00 (0000ms, 0810ms total)
T4984 001:939 JLINK_SetBPEx(Addr = 0x20000000, Type = 0xFFFFFFF2)  returns 0x00000010 (0000ms, 0810ms total)
T4984 001:939 JLINK_Go() (0002ms, 0812ms total)
